T43EC 168:239.948   SEGGER J-Link V6.53b (beta) Log File
T43EC 168:239.992   DLL Compiled: Oct 21 2019 18:24:34
T43EC 168:240.010   Logging started @ 2020-01-15 12:52
T43EC 168:240.016 JLINK_SetWarnOutHandler(...)
T43EC 168:240.020 - 0.005ms
T43EC 168:240.025 JLINK_OpenEx(...)
T43EC 168:241.402   Firmware: J-Link V9 compiled May 17 2019 09:50:41
T43EC 168:254.114   Hardware: V9.50
T43EC 168:254.123   S/N: 59502073
T43EC 168:254.129   OEM: SEGGER
T43EC 168:254.134   Feature(s): GDB, RDI, FlashBP, FlashDL, JFlash
T43EC 168:256.156   TELNET listener socket opened on port 19021
T43EC 168:277.764   Device "STM32H750VB" selected.
T43EC 168:279.003   WEBSRV Starting webserver
T43EC 168:279.138   WEBSRV Webserver running on local port 19080
T43EC 168:279.147 - 39.123ms returns "O.K."
T43EC 168:279.163 JLINK_GetEmuCaps()
T43EC 168:279.167 - 0.006ms returns 0xB9FF7BBF
T43EC 168:279.174 JLINK_TIF_GetAvailable(...)
T43EC 168:279.615 - 0.446ms
T43EC 168:280.236 JLINK_SetErrorOutHandler(...)
T43EC 168:280.243 - 0.010ms
T43EC 168:280.254 JLINK_ExecCommand("ProjectFile = "C:\Users\fuhua\Desktop\H7PI_Arduino\H7PI\MDK-ARM\JLinkSettings.ini"", ...). 
T43EC 168:292.042   Device "STM32H750VB" selected.
T43EC 168:292.992 - 12.744ms returns 0x00
T43EC 168:296.892 JLINK_ExecCommand("Device = STM32H750VBTx", ...). 
T43EC 168:308.595   Device "STM32H750VB" selected.
T43EC 168:309.557 - 12.660ms returns 0x00
T43EC 168:309.572 JLINK_ExecCommand("DisableConnectionTimeout", ...). 
T43EC 168:309.580 - 0.004ms returns 0x01
T43EC 168:309.589 JLINK_GetHardwareVersion()
T43EC 168:309.593 - 0.006ms returns 0x17318
T43EC 168:309.598 JLINK_GetDLLVersion()  returns 65302
T43EC 168:309.604 JLINK_GetFirmwareString(...)
T43EC 168:309.608 - 0.005ms
T43EC 168:321.474 JLINK_GetDLLVersion()  returns 65302
T43EC 168:321.493 JLINK_GetCompileDateTime()
T43EC 168:321.497 - 0.005ms
T43EC 168:325.064 JLINK_GetFirmwareString(...)
T43EC 168:325.078 - 0.017ms
T43EC 168:328.282 JLINK_GetHardwareVersion()
T43EC 168:328.293 - 0.012ms returns 0x17318
T43EC 168:343.869 JLINK_TIF_Select(JLINKARM_TIF_SWD)
T43EC 168:345.517 - 1.655ms returns 0x00
T43EC 168:345.535 JLINK_SetSpeed(50000)
T43EC 168:345.851 - 0.319ms
T43EC 168:345.860 JLINK_GetId()
T43EC 168:350.856   Found SW-DP with ID 0x6BA02477
T43EC 168:384.520   Found SW-DP with ID 0x6BA02477
T43EC 168:393.052   Scanning AP map to find all available APs
T43EC 168:406.583   AP[3]: Stopped AP scan as end of AP map has been reached
T43EC 168:410.568   AP[0]: AHB-AP (IDR: 0x84770001)
T43EC 168:413.934   AP[1]: AHB-AP (IDR: 0x84770001)
T43EC 168:417.713   AP[2]: APB-AP (IDR: 0x54770002)
T43EC 168:421.656   Iterating through AP map to find AHB-AP to use
T43EC 168:433.802   AP[0]: Core found
T43EC 168:437.293   AP[0]: AHB-AP ROM base: 0xE00FE000
T43EC 168:445.060   CPUID register: 0x411FC271. Implementer code: 0x41 (ARM)
T43EC 168:448.484   Found Cortex-M7 r1p1, Little endian.
T43EC 168:550.581    -- Max. mem block: 0x00010D88
T43EC 168:551.644    -- CPU_ReadMem(4 bytes @ 0xE000EDF0)
T43EC 168:552.202    -- CPU_WriteMem(4 bytes @ 0xE000EDF0)
T43EC 168:552.785    -- CPU_ReadMem(4 bytes @ 0xE0002000)
T43EC 168:557.962   FPUnit: 8 code (BP) slots and 0 literal slots
T43EC 168:557.977    -- CPU_ReadMem(4 bytes @ 0xE000EDFC)
T43EC 168:558.534    -- CPU_WriteMem(4 bytes @ 0xE000EDFC)
T43EC 168:559.088    -- CPU_ReadMem(4 bytes @ 0xE0001000)
T43EC 168:559.646    -- CPU_WriteMem(4 bytes @ 0xE0001000)
T43EC 168:560.223    -- CPU_ReadMem(4 bytes @ 0xE000ED88)
T43EC 168:560.730    -- CPU_WriteMem(4 bytes @ 0xE000ED88)
T43EC 168:561.252    -- CPU_ReadMem(4 bytes @ 0xE000ED88)
T43EC 168:561.740    -- CPU_WriteMem(4 bytes @ 0xE000ED88)
T43EC 168:565.964   CoreSight components:
T43EC 168:569.122   ROMTbl[0] @ E00FE000
T43EC 168:569.138    -- CPU_ReadMem(16 bytes @ 0xE00FE000)
T43EC 168:569.978    -- CPU_ReadMem(16 bytes @ 0xE00FFFF0)
T43EC 168:570.497    -- CPU_ReadMem(16 bytes @ 0xE00FFFE0)
T43EC 168:575.808   ROMTbl[0][0]: E00FF000, CID: B105100D, PID: 000BB4C7 ROM Table
T43EC 168:580.747   ROMTbl[1] @ E00FF000
T43EC 168:580.896    -- CPU_ReadMem(16 bytes @ 0xE00FF000)
T43EC 168:581.658    -- CPU_ReadMem(16 bytes @ 0xE000EFF0)
T43EC 168:582.320    -- CPU_ReadMem(16 bytes @ 0xE000EFE0)
T43EC 168:587.668   ROMTbl[1][0]: E000E000, CID: B105E00D, PID: 000BB00C SCS-M7
T43EC 168:587.684    -- CPU_ReadMem(16 bytes @ 0xE0001FF0)
T43EC 168:588.379    -- CPU_ReadMem(16 bytes @ 0xE0001FE0)
T43EC 168:593.231   ROMTbl[1][1]: E0001000, CID: B105E00D, PID: 000BB002 DWT
T43EC 168:593.251    -- CPU_ReadMem(16 bytes @ 0xE0002FF0)
T43EC 168:593.890    -- CPU_ReadMem(16 bytes @ 0xE0002FE0)
T43EC 168:599.130   ROMTbl[1][2]: E0002000, CID: B105E00D, PID: 000BB00E FPB-M7
T43EC 168:599.151    -- CPU_ReadMem(16 bytes @ 0xE0000FF0)
T43EC 168:600.055    -- CPU_ReadMem(16 bytes @ 0xE0000FE0)
T43EC 168:604.809   ROMTbl[1][3]: E0000000, CID: B105E00D, PID: 000BB001 ITM
T43EC 168:604.850    -- CPU_ReadMem(16 bytes @ 0xE00FF010)
T43EC 168:605.541    -- CPU_ReadMem(16 bytes @ 0xE0041FF0)
T43EC 168:606.265    -- CPU_ReadMem(16 bytes @ 0xE0041FE0)
T43EC 168:611.342   ROMTbl[0][1]: E0041000, CID: B105900D, PID: 001BB975 ETM-M7
T43EC 168:611.357    -- CPU_ReadMem(16 bytes @ 0xE0043FF0)
T43EC 168:611.980    -- CPU_ReadMem(16 bytes @ 0xE0043FE0)
T43EC 168:616.382   ROMTbl[0][2]: E0043000, CID: B105900D, PID: 004BB906 CTI
T43EC 168:616.396    -- CPU_ReadMem(16 bytes @ 0xE00FE010)
T43EC 168:616.995    -- CPU_ReadMem(4 bytes @ 0xE000ED78)
T43EC 168:621.284   Cache: Separate I- and D-cache.
T43EC 168:621.295    -- CPU_WriteMem(4 bytes @ 0xE000ED84)
T43EC 168:621.822    -- CPU_ReadMem(4 bytes @ 0xE000ED80)
T43EC 168:626.291   I-Cache L1: 16 KB, 256 Sets, 32 Bytes/Line, 2-Way
T43EC 168:626.309    -- CPU_WriteMem(4 bytes @ 0xE000ED84)
T43EC 168:626.846    -- CPU_ReadMem(4 bytes @ 0xE000ED80)
T43EC 168:631.530   D-Cache L1: 16 KB, 128 Sets, 32 Bytes/Line, 4-Way
T43EC 168:632.307 - 286.453ms   returns 0x6BA02477
T43EC 168:632.320 JLINK_GetDLLVersion()  returns 65302
T43EC 168:632.329 JLINK_CORE_GetFound()
T43EC 168:632.333 - 0.006ms returns 0xE0100FF
T43EC 168:632.339 JLINK_GetDebugInfo(0x100 = JLINKARM_ROM_TABLE_ADDR_INDEX)
T43EC 168:632.343    -- Value=0xE00FE000
T43EC 168:632.349 - 0.012ms returns 0x00
T43EC 168:635.731 JLINK_GetDebugInfo(0x100 = JLINKARM_ROM_TABLE_ADDR_INDEX)
T43EC 168:635.741    -- Value=0xE00FE000
T43EC 168:635.747 - 0.018ms returns 0x00
T43EC 168:635.752 JLINK_GetDebugInfo(0x101 = JLINKARM_DEBUG_INFO_ETM_ADDR_INDEX)
T43EC 168:635.756    -- Value=0xE0041000
T43EC 168:635.761 - 0.011ms returns 0x00
T43EC 168:635.769   JLINK_ReadMemEx(0xE0041FD0, 0x0020 Bytes, ..., Flags = 0x02000004)
T43EC 168:635.783    -- CPU_ReadMem(32 bytes @ 0xE0041FD0)
T43EC 168:636.616    - Data: 04 00 00 00 00 00 00 00 00 00 00 00 00 00 00 00 ...
T43EC 168:636.625 - 0.859ms returns 0x20
T43EC 168:636.632 JLINK_GetDebugInfo(0x102 = JLINKARM_DEBUG_INFO_MTB_ADDR_INDEX)
T43EC 168:636.636    -- Value=0x00000000
T43EC 168:636.655 - 0.025ms returns 0x00
T43EC 168:636.659 JLINK_GetDebugInfo(0x103 = JLINKARM_DEBUG_INFO_TPIU_ADDR_INDEX)
T43EC 168:636.663    -- Value=0x00000000
T43EC 168:636.668 - 0.010ms returns 0x00
T43EC 168:636.673   JLINK_ReadMemEx(0xE0040FF0, 0x0010 Bytes, ..., Flags = 0x02000004)
T43EC 168:636.683    -- CPU_ReadMem(16 bytes @ 0xE0040FF0)
T43EC 168:637.209    - Data: 00 00 00 00 00 00 00 00 00 00 00 00 00 00 00 00
T43EC 168:637.216 - 0.544ms returns 0x10
T43EC 168:637.221 JLINK_GetDebugInfo(0x104 = JLINKARM_DEBUG_INFO_ITM_ADDR_INDEX)
T43EC 168:637.225    -- Value=0xE0000000
T43EC 168:637.230 - 0.010ms returns 0x00
T43EC 168:637.234 JLINK_GetDebugInfo(0x105 = JLINKARM_DEBUG_INFO_DWT_ADDR_INDEX)
T43EC 168:637.238    -- Value=0xE0001000
T43EC 168:637.243 - 0.010ms returns 0x00
T43EC 168:637.247 JLINK_GetDebugInfo(0x106 = JLINKARM_DEBUG_INFO_FPB_ADDR_INDEX)
T43EC 168:637.251    -- Value=0xE0002000
T43EC 168:637.256 - 0.010ms returns 0x00
T43EC 168:637.260 JLINK_GetDebugInfo(0x107 = JLINKARM_DEBUG_INFO_NVIC_ADDR_INDEX)
T43EC 168:637.264    -- Value=0xE000E000
T43EC 168:637.269 - 0.013ms returns 0x00
T43EC 168:637.277 JLINK_GetDebugInfo(0x10C = JLINKARM_DEBUG_INFO_DBG_ADDR_INDEX)
T43EC 168:637.281    -- Value=0xE000EDF0
T43EC 168:637.286 - 0.010ms returns 0x00
T43EC 168:637.290 JLINK_GetDebugInfo(0x01 = Unknown)
T43EC 168:637.294    -- Value=0x00000001
T43EC 168:637.299 - 0.010ms returns 0x00
T43EC 168:637.305   JLINK_ReadMemU32(0xE000ED00, 0x0001 Items, ...)
T43EC 168:637.314    -- CPU_ReadMem(4 bytes @ 0xE000ED00)
T43EC 168:637.793    - Data: 71 C2 1F 41
T43EC 168:637.804    - CPUID
T43EC 168:637.810 - 0.506ms returns 1
T43EC 168:637.816 JLINK_GetDebugInfo(0x10F = JLINKARM_DEBUG_INFO_HAS_CORTEX_M_SECURITY_EXT_INDEX)
T43EC 168:637.821    -- Value=0x00000000
T43EC 168:637.826 - 0.012ms returns 0x00
T43EC 168:637.834 JLINK_SetResetType(JLINKARM_CM3_RESET_TYPE_NORMAL)
T43EC 168:637.839 - 0.006ms returns JLINKARM_CM3_RESET_TYPE_NORMAL
T43EC 168:637.844 JLINK_Reset()
T43EC 168:637.853    -- CPU is running
T43EC 168:637.860    -- CPU_WriteMem(4 bytes @ 0xE000EDF0)
T43EC 168:638.448    -- CPU is running
T43EC 168:638.458    -- CPU_WriteMem(4 bytes @ 0xE000EDFC)
T43EC 168:642.692   Reset: Halt core after reset via DEMCR.VC_CORERESET.
T43EC 168:646.925   Reset: Reset device via AIRCR.SYSRESETREQ.
T43EC 168:646.942    -- CPU is running
T43EC 168:646.950    -- CPU_WriteMem(4 bytes @ 0xE000ED0C)
T43EC 168:700.965    -- CPU_ReadMem(4 bytes @ 0xE000EDF0)
T43EC 168:701.496    -- CPU_ReadMem(4 bytes @ 0xE000EDF0)
T43EC 168:701.992    -- CPU is running
T43EC 168:702.003    -- CPU_WriteMem(4 bytes @ 0xE000EDF0)
T43EC 168:702.529    -- CPU is running
T43EC 168:702.538    -- CPU_WriteMem(4 bytes @ 0xE000EDFC)
T43EC 168:709.228    -- CPU_ReadMem(4 bytes @ 0xE000EDF0)
T43EC 168:712.344    -- CPU_WriteMem(4 bytes @ 0xE0002000)
T43EC 168:712.842    -- CPU_ReadMem(4 bytes @ 0xE000EDFC)
T43EC 168:713.463    -- CPU_ReadMem(4 bytes @ 0xE0001000)
T43EC 168:713.958 - 76.118ms
T43EC 168:713.980 JLINK_Halt()
T43EC 168:713.984 - 0.006ms returns 0x00
T43EC 168:713.990   JLINK_ReadMemU32(0xE000EDF0, 0x0001 Items, ...)
T43EC 168:714.000    -- CPU_ReadMem(4 bytes @ 0xE000EDF0)
T43EC 168:714.531    - Data: 03 00 03 00
T43EC 168:714.538    - DHCSR
T43EC 168:714.543 - 0.555ms returns 1
T43EC 168:714.552   JLINK_WriteU32(0xE000EDF0, 0xA05F0003)
T43EC 168:714.557    - DHCSR
T43EC 168:714.568    -- CPU_WriteMem(4 bytes @ 0xE000EDF0)
T43EC 168:715.045 - 0.496ms returns 0
T43EC 168:715.052   JLINK_WriteU32(0xE000EDFC, 0x01000000)
T43EC 168:715.058    - DEMCR
T43EC 168:715.066    -- CPU_WriteMem(4 bytes @ 0xE000EDFC)
T43EC 168:715.582 - 0.533ms returns 0
T43EC 168:731.604 JLINK_GetHWStatus(...)
T43EC 168:732.083 - 0.485ms returns 0x00
T43EC 168:742.484 JLINK_GetNumBPUnits(Type = 0xFFFFFF00)
T43EC 168:742.498 - 0.016ms returns 0x08
T43EC 168:742.503 JLINK_GetNumBPUnits(Type = 0xF0)
T43EC 168:742.508 - 0.006ms returns 0x2000
T43EC 168:742.513 JLINK_GetNumWPUnits()
T43EC 168:742.516 - 0.005ms returns 0x04
T43EC 168:752.779 JLINK_GetSpeed()
T43EC 168:752.794 - 0.016ms returns 0x2EE0
T43EC 168:759.904   JLINK_ReadMemU32(0xE000E004, 0x0001 Items, ...)
T43EC 168:759.929    -- CPU_ReadMem(4 bytes @ 0xE000E004)
T43EC 168:760.503    - Data: 04 00 00 00
T43EC 168:760.514 - 0.613ms returns 1
T43EC 168:760.522   JLINK_ReadMemU32(0xE000E004, 0x0001 Items, ...)
T43EC 168:760.533    -- CPU_ReadMem(4 bytes @ 0xE000E004)
T43EC 168:761.028    - Data: 04 00 00 00
T43EC 168:761.038 - 0.518ms returns 1
T43EC 168:761.048 JLINK_WriteMemEx(0xE0001000, 0x001C Bytes, ..., Flags = 0x02000004)
T43EC 168:761.053    - Data: 01 00 00 00 00 00 00 00 00 00 00 00 00 00 00 00 ...
T43EC 168:761.330    -- CPU_WriteMem(28 bytes @ 0xE0001000)
T43EC 168:761.921 - 0.878ms returns 0x1C
T43EC 168:761.933 JLINK_Halt()
T43EC 168:761.937 - 0.006ms returns 0x00
T43EC 168:761.945 JLINK_IsHalted()
T43EC 168:761.949 - 0.006ms returns TRUE
T43EC 168:763.941 JLINK_WriteMem(0x24000000, 0x0B58 Bytes, ...)
T43EC 168:763.949    - Data: 00 BE 0A E0 0D 78 2D 06 68 40 08 24 40 00 00 D3 ...
T43EC 168:764.221    -- CPU_WriteMem(2904 bytes @ 0x24000000)
T43EC 168:777.009 - 13.078ms returns 0xB58
T43EC 168:777.061 JLINK_WriteReg(R0, 0x90000000)
T43EC 168:777.070 - 0.011ms returns 0x00
T43EC 168:777.076 JLINK_WriteReg(R1, 0x0E4E1C00)
T43EC 168:777.080 - 0.006ms returns 0x00
T43EC 168:777.084 JLINK_WriteReg(R2, 0x00000001)
T43EC 168:777.088 - 0.005ms returns 0x00
T43EC 168:777.092 JLINK_WriteReg(R3, 0x00000000)
T43EC 168:777.096 - 0.005ms returns 0x00
T43EC 168:777.101 JLINK_WriteReg(R4, 0x00000000)
T43EC 168:777.104 - 0.005ms returns 0x00
T43EC 168:777.109 JLINK_WriteReg(R5, 0x00000000)
T43EC 168:777.113 - 0.005ms returns 0x00
T43EC 168:777.117 JLINK_WriteReg(R6, 0x00000000)
T43EC 168:777.121 - 0.005ms returns 0x00
T43EC 168:777.125 JLINK_WriteReg(R7, 0x00000000)
T43EC 168:777.129 - 0.005ms returns 0x00
T43EC 168:777.134 JLINK_WriteReg(R8, 0x00000000)
T43EC 168:777.138 - 0.005ms returns 0x00
T43EC 168:777.142 JLINK_WriteReg(R9, 0x24000B4C)
T43EC 168:777.146 - 0.005ms returns 0x00
T43EC 168:777.151 JLINK_WriteReg(R10, 0x00000000)
T43EC 168:777.155 - 0.005ms returns 0x00
T43EC 168:777.159 JLINK_WriteReg(R11, 0x00000000)
T43EC 168:777.163 - 0.005ms returns 0x00
T43EC 168:777.168 JLINK_WriteReg(R12, 0x00000000)
T43EC 168:777.172 - 0.005ms returns 0x00
T43EC 168:777.176 JLINK_WriteReg(R13 (SP), 0x24005000)
T43EC 168:777.180 - 0.006ms returns 0x00
T43EC 168:777.185 JLINK_WriteReg(R14, 0x24000001)
T43EC 168:777.189 - 0.005ms returns 0x00
T43EC 168:777.193 JLINK_WriteReg(R15 (PC), 0x24000068)
T43EC 168:777.197 - 0.005ms returns 0x00
T43EC 168:777.201 JLINK_WriteReg(XPSR, 0x01000000)
T43EC 168:777.206 - 0.006ms returns 0x00
T43EC 168:777.210 JLINK_WriteReg(MSP, 0x24005000)
T43EC 168:777.214 - 0.005ms returns 0x00
T43EC 168:777.219 JLINK_WriteReg(PSP, 0x24005000)
T43EC 168:777.223 - 0.005ms returns 0x00
T43EC 168:777.227 JLINK_WriteReg(CFBP, 0x00000000)
T43EC 168:777.231 - 0.005ms returns 0x00
T43EC 168:777.237   JLINK_SetBPEx(Addr = 0x24000000, Type = 0xFFFFFFF2)
T43EC 168:777.244 - 0.009ms returns 0x00000001
T43EC 168:777.250 JLINK_Go()
T43EC 168:777.258    -- CPU_WriteMem(4 bytes @ 0xE0002000)
T43EC 168:777.778    -- CPU_ReadMem(4 bytes @ 0xE0001000)
T43EC 168:778.247    -- CPU_WriteMem(4 bytes @ 0xE0002008)
T43EC 168:778.255    -- CPU_WriteMem(4 bytes @ 0xE000200C)
T43EC 168:778.260    -- CPU_WriteMem(4 bytes @ 0xE0002010)
T43EC 168:778.266    -- CPU_WriteMem(4 bytes @ 0xE0002014)
T43EC 168:778.271    -- CPU_WriteMem(4 bytes @ 0xE0002018)
T43EC 168:778.276    -- CPU_WriteMem(4 bytes @ 0xE000201C)
T43EC 168:778.281    -- CPU_WriteMem(4 bytes @ 0xE0002020)
T43EC 168:778.287    -- CPU_WriteMem(4 bytes @ 0xE0002024)
T43EC 168:780.070    -- CPU_WriteMem(4 bytes @ 0xE0001004)
T43EC 168:783.402 - 6.156ms
T43EC 168:783.411 JLINK_IsHalted()
T43EC 168:785.966 - 2.559ms returns TRUE
T43EC 168:785.977 JLINK_ReadReg(R15 (PC))
T43EC 168:785.983 - 0.007ms returns 0x24000000
T43EC 168:785.988 JLINK_ClrBPEx(BPHandle = 0x00000001)
T43EC 168:785.992 - 0.006ms returns 0x00
T43EC 168:785.997 JLINK_ReadReg(R0)
T43EC 168:786.001 - 0.005ms returns 0x00000000
T43EC 168:786.215 JLINK_WriteReg(R0, 0x90000000)
T43EC 168:786.223 - 0.009ms returns 0x00
T43EC 168:786.227 JLINK_WriteReg(R1, 0x00001000)
T43EC 168:786.231 - 0.005ms returns 0x00
T43EC 168:786.236 JLINK_WriteReg(R2, 0x000000FF)
T43EC 168:786.240 - 0.005ms returns 0x00
T43EC 168:786.244 JLINK_WriteReg(R3, 0x00000000)
T43EC 168:786.248 - 0.005ms returns 0x00
T43EC 168:786.252 JLINK_WriteReg(R4, 0x00000000)
T43EC 168:786.256 - 0.005ms returns 0x00
T43EC 168:786.260 JLINK_WriteReg(R5, 0x00000000)
T43EC 168:786.264 - 0.005ms returns 0x00
T43EC 168:786.268 JLINK_WriteReg(R6, 0x00000000)
T43EC 168:786.272 - 0.005ms returns 0x00
T43EC 168:786.277 JLINK_WriteReg(R7, 0x00000000)
T43EC 168:786.280 - 0.005ms returns 0x00
T43EC 168:786.285 JLINK_WriteReg(R8, 0x00000000)
T43EC 168:786.289 - 0.005ms returns 0x00
T43EC 168:786.293 JLINK_WriteReg(R9, 0x24000B4C)
T43EC 168:786.297 - 0.005ms returns 0x00
T43EC 168:786.301 JLINK_WriteReg(R10, 0x00000000)
T43EC 168:786.616 - 0.322ms returns 0x00
T43EC 168:786.626 JLINK_WriteReg(R11, 0x00000000)
T43EC 168:786.631 - 0.006ms returns 0x00
T43EC 168:786.635 JLINK_WriteReg(R12, 0x00000000)
T43EC 168:786.639 - 0.005ms returns 0x00
T43EC 168:786.643 JLINK_WriteReg(R13 (SP), 0x24005000)
T43EC 168:786.648 - 0.006ms returns 0x00
T43EC 168:786.652 JLINK_WriteReg(R14, 0x24000001)
T43EC 168:786.656 - 0.005ms returns 0x00
T43EC 168:786.660 JLINK_WriteReg(R15 (PC), 0x240000AC)
T43EC 168:786.664 - 0.005ms returns 0x00
T43EC 168:786.669 JLINK_WriteReg(XPSR, 0x01000000)
T43EC 168:786.672 - 0.005ms returns 0x00
T43EC 168:786.677 JLINK_WriteReg(MSP, 0x24005000)
T43EC 168:786.681 - 0.005ms returns 0x00
T43EC 168:786.685 JLINK_WriteReg(PSP, 0x24005000)
T43EC 168:786.689 - 0.005ms returns 0x00
T43EC 168:786.693 JLINK_WriteReg(CFBP, 0x00000000)
T43EC 168:786.697 - 0.005ms returns 0x00
T43EC 168:786.702   JLINK_SetBPEx(Addr = 0x24000000, Type = 0xFFFFFFF2)
T43EC 168:786.708 - 0.008ms returns 0x00000002
T43EC 168:786.713 JLINK_Go()
T43EC 168:786.719    -- CPU_WriteMem(4 bytes @ 0xE0002000)
T43EC 168:787.229    -- CPU_ReadMem(4 bytes @ 0xE0001000)
T43EC 168:791.099 - 4.394ms
T43EC 168:791.113 JLINK_IsHalted()
T43EC 168:793.720 - 2.611ms returns TRUE
T43EC 168:793.728 JLINK_ReadReg(R15 (PC))
T43EC 168:793.733 - 0.007ms returns 0x24000000
T43EC 168:793.738 JLINK_ClrBPEx(BPHandle = 0x00000002)
T43EC 168:793.742 - 0.006ms returns 0x00
T43EC 168:793.747 JLINK_ReadReg(R0)
T43EC 168:793.751 - 0.005ms returns 0x00000001
T43EC 168:793.757 JLINK_WriteReg(R0, 0x90000000)
T43EC 168:793.761 - 0.006ms returns 0x00
T43EC 168:793.766 JLINK_WriteReg(R1, 0x00001000)
T43EC 168:793.770 - 0.005ms returns 0x00
T43EC 168:793.774 JLINK_WriteReg(R2, 0x000000FF)
T43EC 168:793.778 - 0.005ms returns 0x00
T43EC 168:793.782 JLINK_WriteReg(R3, 0x00000000)
T43EC 168:793.786 - 0.005ms returns 0x00
T43EC 168:793.790 JLINK_WriteReg(R4, 0x00000000)
T43EC 168:793.794 - 0.005ms returns 0x00
T43EC 168:793.798 JLINK_WriteReg(R5, 0x00000000)
T43EC 168:793.802 - 0.005ms returns 0x00
T43EC 168:793.806 JLINK_WriteReg(R6, 0x00000000)
T43EC 168:793.810 - 0.005ms returns 0x00
T43EC 168:793.815 JLINK_WriteReg(R7, 0x00000000)
T43EC 168:793.818 - 0.005ms returns 0x00
T43EC 168:793.823 JLINK_WriteReg(R8, 0x00000000)
T43EC 168:793.827 - 0.005ms returns 0x00
T43EC 168:793.831 JLINK_WriteReg(R9, 0x24000B4C)
T43EC 168:793.835 - 0.005ms returns 0x00
T43EC 168:793.839 JLINK_WriteReg(R10, 0x00000000)
T43EC 168:793.843 - 0.005ms returns 0x00
T43EC 168:793.848 JLINK_WriteReg(R11, 0x00000000)
T43EC 168:793.852 - 0.005ms returns 0x00
T43EC 168:793.856 JLINK_WriteReg(R12, 0x00000000)
T43EC 168:793.860 - 0.005ms returns 0x00
T43EC 168:793.864 JLINK_WriteReg(R13 (SP), 0x24005000)
T43EC 168:793.868 - 0.006ms returns 0x00
T43EC 168:793.872 JLINK_WriteReg(R14, 0x24000001)
T43EC 168:793.876 - 0.005ms returns 0x00
T43EC 168:793.881 JLINK_WriteReg(R15 (PC), 0x2400009A)
T43EC 168:793.885 - 0.005ms returns 0x00
T43EC 168:793.889 JLINK_WriteReg(XPSR, 0x01000000)
T43EC 168:793.893 - 0.005ms returns 0x00
T43EC 168:793.897 JLINK_WriteReg(MSP, 0x24005000)
T43EC 168:793.901 - 0.005ms returns 0x00
T43EC 168:793.905 JLINK_WriteReg(PSP, 0x24005000)
T43EC 168:793.909 - 0.005ms returns 0x00
T43EC 168:793.914 JLINK_WriteReg(CFBP, 0x00000000)
T43EC 168:793.918 - 0.005ms returns 0x00
T43EC 168:793.923   JLINK_SetBPEx(Addr = 0x24000000, Type = 0xFFFFFFF2)
T43EC 168:793.929 - 0.008ms returns 0x00000003
T43EC 168:793.933 JLINK_Go()
T43EC 168:793.941    -- CPU_WriteMem(4 bytes @ 0xE0002000)
T43EC 168:794.508    -- CPU_ReadMem(4 bytes @ 0xE0001000)
T43EC 168:798.235 - 4.306ms
T43EC 168:798.244 JLINK_IsHalted()
T43EC 168:798.707 - 0.467ms returns FALSE
T43EC 168:854.143 JLINK_IsHalted()
T43EC 168:856.931 - 2.796ms returns TRUE
T43EC 168:856.944 JLINK_ReadReg(R15 (PC))
T43EC 168:856.950 - 0.008ms returns 0x24000000
T43EC 168:856.955 JLINK_ClrBPEx(BPHandle = 0x00000003)
T43EC 168:856.959 - 0.006ms returns 0x00
T43EC 168:856.963 JLINK_ReadReg(R0)
T43EC 168:856.969 - 0.008ms returns 0x00000000
T43EC 168:857.373 JLINK_WriteReg(R0, 0x90001000)
T43EC 168:857.382 - 0.011ms returns 0x00
T43EC 168:857.387 JLINK_WriteReg(R1, 0x00001000)
T43EC 168:857.391 - 0.006ms returns 0x00
T43EC 168:857.395 JLINK_WriteReg(R2, 0x000000FF)
T43EC 168:857.399 - 0.005ms returns 0x00
T43EC 168:857.403 JLINK_WriteReg(R3, 0x00000000)
T43EC 168:857.407 - 0.005ms returns 0x00
T43EC 168:857.411 JLINK_WriteReg(R4, 0x00000000)
T43EC 168:857.415 - 0.005ms returns 0x00
T43EC 168:857.419 JLINK_WriteReg(R5, 0x00000000)
T43EC 168:857.423 - 0.005ms returns 0x00
T43EC 168:857.427 JLINK_WriteReg(R6, 0x00000000)
T43EC 168:857.431 - 0.005ms returns 0x00
T43EC 168:857.435 JLINK_WriteReg(R7, 0x00000000)
T43EC 168:857.438 - 0.005ms returns 0x00
T43EC 168:857.442 JLINK_WriteReg(R8, 0x00000000)
T43EC 168:857.446 - 0.005ms returns 0x00
T43EC 168:857.450 JLINK_WriteReg(R9, 0x24000B4C)
T43EC 168:857.454 - 0.005ms returns 0x00
T43EC 168:857.458 JLINK_WriteReg(R10, 0x00000000)
T43EC 168:857.462 - 0.005ms returns 0x00
T43EC 168:857.466 JLINK_WriteReg(R11, 0x00000000)
T43EC 168:857.470 - 0.005ms returns 0x00
T43EC 168:857.474 JLINK_WriteReg(R12, 0x00000000)
T43EC 168:857.478 - 0.005ms returns 0x00
T43EC 168:857.482 JLINK_WriteReg(R13 (SP), 0x24005000)
T43EC 168:857.486 - 0.005ms returns 0x00
T43EC 168:857.490 JLINK_WriteReg(R14, 0x24000001)
T43EC 168:857.494 - 0.005ms returns 0x00
T43EC 168:857.498 JLINK_WriteReg(R15 (PC), 0x240000AC)
T43EC 168:857.502 - 0.005ms returns 0x00
T43EC 168:857.506 JLINK_WriteReg(XPSR, 0x01000000)
T43EC 168:857.510 - 0.005ms returns 0x00
T43EC 168:857.514 JLINK_WriteReg(MSP, 0x24005000)
T43EC 168:857.517 - 0.005ms returns 0x00
T43EC 168:857.522 JLINK_WriteReg(PSP, 0x24005000)
T43EC 168:857.525 - 0.005ms returns 0x00
T43EC 168:857.529 JLINK_WriteReg(CFBP, 0x00000000)
T43EC 168:857.533 - 0.005ms returns 0x00
T43EC 168:857.538   JLINK_SetBPEx(Addr = 0x24000000, Type = 0xFFFFFFF2)
T43EC 168:857.544 - 0.008ms returns 0x00000004
T43EC 168:857.549 JLINK_Go()
T43EC 168:857.556    -- CPU_WriteMem(4 bytes @ 0xE0002000)
T43EC 168:858.095    -- CPU_ReadMem(4 bytes @ 0xE0001000)
T43EC 168:861.846 - 4.301ms
T43EC 168:861.855 JLINK_IsHalted()
T43EC 168:864.426 - 2.578ms returns TRUE
T43EC 168:864.440 JLINK_ReadReg(R15 (PC))
T43EC 168:864.446 - 0.008ms returns 0x24000000
T43EC 168:864.452 JLINK_ClrBPEx(BPHandle = 0x00000004)
T43EC 168:864.456 - 0.006ms returns 0x00
T43EC 168:864.462 JLINK_ReadReg(R0)
T43EC 168:864.466 - 0.005ms returns 0x00000001
T43EC 168:864.472 JLINK_WriteReg(R0, 0x90001000)
T43EC 168:864.477 - 0.006ms returns 0x00
T43EC 168:864.482 JLINK_WriteReg(R1, 0x00001000)
T43EC 168:864.486 - 0.005ms returns 0x00
T43EC 168:864.491 JLINK_WriteReg(R2, 0x000000FF)
T43EC 168:864.495 - 0.005ms returns 0x00
T43EC 168:864.499 JLINK_WriteReg(R3, 0x00000000)
T43EC 168:864.503 - 0.005ms returns 0x00
T43EC 168:864.508 JLINK_WriteReg(R4, 0x00000000)
T43EC 168:864.511 - 0.005ms returns 0x00
T43EC 168:864.516 JLINK_WriteReg(R5, 0x00000000)
T43EC 168:864.520 - 0.005ms returns 0x00
T43EC 168:864.525 JLINK_WriteReg(R6, 0x00000000)
T43EC 168:864.529 - 0.005ms returns 0x00
T43EC 168:864.534 JLINK_WriteReg(R7, 0x00000000)
T43EC 168:864.538 - 0.005ms returns 0x00
T43EC 168:864.543 JLINK_WriteReg(R8, 0x00000000)
T43EC 168:864.547 - 0.005ms returns 0x00
T43EC 168:864.552 JLINK_WriteReg(R9, 0x24000B4C)
T43EC 168:864.556 - 0.005ms returns 0x00
T43EC 168:864.561 JLINK_WriteReg(R10, 0x00000000)
T43EC 168:864.565 - 0.005ms returns 0x00
T43EC 168:864.570 JLINK_WriteReg(R11, 0x00000000)
T43EC 168:864.574 - 0.005ms returns 0x00
T43EC 168:864.579 JLINK_WriteReg(R12, 0x00000000)
T43EC 168:864.582 - 0.005ms returns 0x00
T43EC 168:864.587 JLINK_WriteReg(R13 (SP), 0x24005000)
T43EC 168:864.592 - 0.006ms returns 0x00
T43EC 168:864.597 JLINK_WriteReg(R14, 0x24000001)
T43EC 168:864.601 - 0.005ms returns 0x00
T43EC 168:864.605 JLINK_WriteReg(R15 (PC), 0x2400009A)
T43EC 168:864.609 - 0.006ms returns 0x00
T43EC 168:864.615 JLINK_WriteReg(XPSR, 0x01000000)
T43EC 168:864.623 - 0.010ms returns 0x00
T43EC 168:864.628 JLINK_WriteReg(MSP, 0x24005000)
T43EC 168:864.633 - 0.007ms returns 0x00
T43EC 168:864.639 JLINK_WriteReg(PSP, 0x24005000)
T43EC 168:864.644 - 0.006ms returns 0x00
T43EC 168:864.705 JLINK_WriteReg(CFBP, 0x00000000)
T43EC 168:864.710 - 0.007ms returns 0x00
T43EC 168:864.715   JLINK_SetBPEx(Addr = 0x24000000, Type = 0xFFFFFFF2)
T43EC 168:864.721 - 0.008ms returns 0x00000005
T43EC 168:864.726 JLINK_Go()
T43EC 168:864.733    -- CPU_WriteMem(4 bytes @ 0xE0002000)
T43EC 168:865.279    -- CPU_ReadMem(4 bytes @ 0xE0001000)
T43EC 168:869.251 - 4.530ms
T43EC 168:869.261 JLINK_IsHalted()
T43EC 168:869.934 - 0.676ms returns FALSE
T43EC 168:871.142 JLINK_IsHalted()
T43EC 168:871.709 - 0.572ms returns FALSE
T43EC 168:873.178 JLINK_IsHalted()
T43EC 168:873.727 - 0.553ms returns FALSE
T43EC 168:875.114 JLINK_IsHalted()
T43EC 168:875.683 - 0.574ms returns FALSE
T43EC 168:878.141 JLINK_IsHalted()
T43EC 168:878.705 - 0.568ms returns FALSE
T43EC 168:880.137 JLINK_IsHalted()
T43EC 168:880.706 - 0.574ms returns FALSE
T43EC 168:882.127 JLINK_IsHalted()
T43EC 168:882.713 - 0.591ms returns FALSE
T43EC 168:884.148 JLINK_IsHalted()
T43EC 168:884.713 - 0.570ms returns FALSE
T43EC 168:886.117 JLINK_IsHalted()
T43EC 168:886.910 - 0.798ms returns FALSE
T43EC 168:888.050 JLINK_IsHalted()
T43EC 168:888.612 - 0.567ms returns FALSE
T43EC 168:890.105 JLINK_IsHalted()
T43EC 168:890.707 - 0.607ms returns FALSE
T43EC 168:892.097 JLINK_IsHalted()
T43EC 168:892.684 - 0.592ms returns FALSE
T43EC 168:894.064 JLINK_IsHalted()
T43EC 168:894.493 - 0.432ms returns FALSE
T43EC 168:896.058 JLINK_IsHalted()
T43EC 168:896.499 - 0.444ms returns FALSE
T43EC 168:898.054 JLINK_IsHalted()
T43EC 168:898.498 - 0.447ms returns FALSE
T43EC 168:900.051 JLINK_IsHalted()
T43EC 168:900.492 - 0.444ms returns FALSE
T43EC 168:902.043 JLINK_IsHalted()
T43EC 168:902.540 - 0.500ms returns FALSE
T43EC 168:904.037 JLINK_IsHalted()
T43EC 168:904.497 - 0.464ms returns FALSE
T43EC 168:906.034 JLINK_IsHalted()
T43EC 168:906.566 - 0.535ms returns FALSE
T43EC 168:908.028 JLINK_IsHalted()
T43EC 168:908.521 - 0.495ms returns FALSE
T43EC 168:910.022 JLINK_IsHalted()
T43EC 168:910.554 - 0.536ms returns FALSE
T43EC 168:913.017 JLINK_IsHalted()
T43EC 168:913.508 - 0.494ms returns FALSE
T43EC 168:915.053 JLINK_IsHalted()
T43EC 168:915.569 - 0.521ms returns FALSE
T43EC 168:917.055 JLINK_IsHalted()
T43EC 168:917.597 - 0.548ms returns FALSE
T43EC 168:919.035 JLINK_IsHalted()
T43EC 168:919.569 - 0.539ms returns FALSE
T43EC 168:921.045 JLINK_IsHalted()
T43EC 168:921.685 - 0.645ms returns FALSE
T43EC 168:923.029 JLINK_IsHalted()
T43EC 168:923.520 - 0.496ms returns FALSE
T43EC 168:925.012 JLINK_IsHalted()
T43EC 168:925.655 - 0.661ms returns FALSE
T43EC 168:927.015 JLINK_IsHalted()
T43EC 168:929.867 - 2.857ms returns TRUE
T43EC 168:929.877 JLINK_ReadReg(R15 (PC))
T43EC 168:929.883 - 0.008ms returns 0x24000000
T43EC 168:929.888 JLINK_ClrBPEx(BPHandle = 0x00000005)
T43EC 168:929.893 - 0.006ms returns 0x00
T43EC 168:929.898 JLINK_ReadReg(R0)
T43EC 168:929.902 - 0.006ms returns 0x00000000
T43EC 168:930.204 JLINK_WriteReg(R0, 0x90002000)
T43EC 168:930.212 - 0.010ms returns 0x00
T43EC 168:930.216 JLINK_WriteReg(R1, 0x00001000)
T43EC 168:930.220 - 0.006ms returns 0x00
T43EC 168:930.225 JLINK_WriteReg(R2, 0x000000FF)
T43EC 168:930.229 - 0.005ms returns 0x00
T43EC 168:930.233 JLINK_WriteReg(R3, 0x00000000)
T43EC 168:930.237 - 0.005ms returns 0x00
T43EC 168:930.242 JLINK_WriteReg(R4, 0x00000000)
T43EC 168:930.246 - 0.005ms returns 0x00
T43EC 168:930.250 JLINK_WriteReg(R5, 0x00000000)
T43EC 168:930.254 - 0.005ms returns 0x00
T43EC 168:930.258 JLINK_WriteReg(R6, 0x00000000)
T43EC 168:930.262 - 0.006ms returns 0x00
T43EC 168:930.267 JLINK_WriteReg(R7, 0x00000000)
T43EC 168:930.271 - 0.005ms returns 0x00
T43EC 168:930.275 JLINK_WriteReg(R8, 0x00000000)
T43EC 168:930.279 - 0.005ms returns 0x00
T43EC 168:930.283 JLINK_WriteReg(R9, 0x24000B4C)
T43EC 168:930.287 - 0.005ms returns 0x00
T43EC 168:930.294 JLINK_WriteReg(R10, 0x00000000)
T43EC 168:930.299 - 0.007ms returns 0x00
T43EC 168:930.303 JLINK_WriteReg(R11, 0x00000000)
T43EC 168:930.307 - 0.006ms returns 0x00
T43EC 168:930.312 JLINK_WriteReg(R12, 0x00000000)
T43EC 168:930.316 - 0.005ms returns 0x00
T43EC 168:930.320 JLINK_WriteReg(R13 (SP), 0x24005000)
T43EC 168:930.325 - 0.006ms returns 0x00
T43EC 168:930.329 JLINK_WriteReg(R14, 0x24000001)
T43EC 168:930.333 - 0.005ms returns 0x00
T43EC 168:930.338 JLINK_WriteReg(R15 (PC), 0x240000AC)
T43EC 168:930.342 - 0.005ms returns 0x00
T43EC 168:930.346 JLINK_WriteReg(XPSR, 0x01000000)
T43EC 168:930.350 - 0.006ms returns 0x00
T43EC 168:930.354 JLINK_WriteReg(MSP, 0x24005000)
T43EC 168:930.358 - 0.005ms returns 0x00
T43EC 168:930.363 JLINK_WriteReg(PSP, 0x24005000)
T43EC 168:930.367 - 0.005ms returns 0x00
T43EC 168:930.371 JLINK_WriteReg(CFBP, 0x00000000)
T43EC 168:930.375 - 0.005ms returns 0x00
T43EC 168:930.380   JLINK_SetBPEx(Addr = 0x24000000, Type = 0xFFFFFFF2)
T43EC 168:930.387 - 0.008ms returns 0x00000006
T43EC 168:930.392 JLINK_Go()
T43EC 168:930.399    -- CPU_WriteMem(4 bytes @ 0xE0002000)
T43EC 168:930.950    -- CPU_ReadMem(4 bytes @ 0xE0001000)
T43EC 168:934.775 - 4.388ms
T43EC 168:934.784 JLINK_IsHalted()
T43EC 168:937.599 - 2.819ms returns TRUE
T43EC 168:937.607 JLINK_ReadReg(R15 (PC))
T43EC 168:937.612 - 0.007ms returns 0x24000000
T43EC 168:937.617 JLINK_ClrBPEx(BPHandle = 0x00000006)
T43EC 168:937.621 - 0.006ms returns 0x00
T43EC 168:937.625 JLINK_ReadReg(R0)
T43EC 168:937.629 - 0.005ms returns 0x00000001
T43EC 168:937.635 JLINK_WriteReg(R0, 0x90002000)
T43EC 168:937.639 - 0.006ms returns 0x00
T43EC 168:937.644 JLINK_WriteReg(R1, 0x00001000)
T43EC 168:937.647 - 0.005ms returns 0x00
T43EC 168:937.651 JLINK_WriteReg(R2, 0x000000FF)
T43EC 168:937.655 - 0.005ms returns 0x00
T43EC 168:937.659 JLINK_WriteReg(R3, 0x00000000)
T43EC 168:937.663 - 0.005ms returns 0x00
T43EC 168:937.667 JLINK_WriteReg(R4, 0x00000000)
T43EC 168:937.671 - 0.005ms returns 0x00
T43EC 168:937.675 JLINK_WriteReg(R5, 0x00000000)
T43EC 168:937.679 - 0.005ms returns 0x00
T43EC 168:937.683 JLINK_WriteReg(R6, 0x00000000)
T43EC 168:937.687 - 0.005ms returns 0x00
T43EC 168:937.691 JLINK_WriteReg(R7, 0x00000000)
T43EC 168:937.695 - 0.005ms returns 0x00
T43EC 168:937.699 JLINK_WriteReg(R8, 0x00000000)
T43EC 168:937.703 - 0.005ms returns 0x00
T43EC 168:937.707 JLINK_WriteReg(R9, 0x24000B4C)
T43EC 168:937.711 - 0.005ms returns 0x00
T43EC 168:937.715 JLINK_WriteReg(R10, 0x00000000)
T43EC 168:937.719 - 0.005ms returns 0x00
T43EC 168:937.723 JLINK_WriteReg(R11, 0x00000000)
T43EC 168:937.727 - 0.005ms returns 0x00
T43EC 168:937.731 JLINK_WriteReg(R12, 0x00000000)
T43EC 168:937.735 - 0.005ms returns 0x00
T43EC 168:937.739 JLINK_WriteReg(R13 (SP), 0x24005000)
T43EC 168:937.743 - 0.005ms returns 0x00
T43EC 168:937.747 JLINK_WriteReg(R14, 0x24000001)
T43EC 168:937.751 - 0.005ms returns 0x00
T43EC 168:937.755 JLINK_WriteReg(R15 (PC), 0x2400009A)
T43EC 168:937.759 - 0.005ms returns 0x00
T43EC 168:937.763 JLINK_WriteReg(XPSR, 0x01000000)
T43EC 168:937.767 - 0.005ms returns 0x00
T43EC 168:937.771 JLINK_WriteReg(MSP, 0x24005000)
T43EC 168:937.775 - 0.005ms returns 0x00
T43EC 168:937.779 JLINK_WriteReg(PSP, 0x24005000)
T43EC 168:937.783 - 0.005ms returns 0x00
T43EC 168:937.788 JLINK_WriteReg(CFBP, 0x00000000)
T43EC 168:937.796 - 0.012ms returns 0x00
T43EC 168:937.806   JLINK_SetBPEx(Addr = 0x24000000, Type = 0xFFFFFFF2)
T43EC 168:937.815 - 0.011ms returns 0x00000007
T43EC 168:937.820 JLINK_Go()
T43EC 168:937.827    -- CPU_WriteMem(4 bytes @ 0xE0002000)
T43EC 168:938.373    -- CPU_ReadMem(4 bytes @ 0xE0001000)
T43EC 168:942.210 - 4.395ms
T43EC 168:942.221 JLINK_IsHalted()
T43EC 168:942.760 - 0.544ms returns FALSE
T43EC 168:944.970 JLINK_IsHalted()
T43EC 168:945.527 - 0.562ms returns FALSE
T43EC 168:946.980 JLINK_IsHalted()
T43EC 168:947.527 - 0.553ms returns FALSE
T43EC 168:948.951 JLINK_IsHalted()
T43EC 168:949.533 - 0.587ms returns FALSE
T43EC 168:950.949 JLINK_IsHalted()
T43EC 168:951.538 - 0.595ms returns FALSE
T43EC 168:952.941 JLINK_IsHalted()
T43EC 168:953.613 - 0.677ms returns FALSE
T43EC 168:954.904 JLINK_IsHalted()
T43EC 168:955.527 - 0.628ms returns FALSE
T43EC 168:957.924 JLINK_IsHalted()
T43EC 168:958.527 - 0.606ms returns FALSE
T43EC 168:959.913 JLINK_IsHalted()
T43EC 168:960.400 - 0.490ms returns FALSE
T43EC 168:961.852 JLINK_IsHalted()
T43EC 168:962.380 - 0.532ms returns FALSE
T43EC 168:964.900 JLINK_IsHalted()
T43EC 168:965.417 - 0.521ms returns FALSE
T43EC 168:966.872 JLINK_IsHalted()
T43EC 168:967.396 - 0.527ms returns FALSE
T43EC 168:968.891 JLINK_IsHalted()
T43EC 168:969.423 - 0.535ms returns FALSE
T43EC 168:970.828 JLINK_IsHalted()
T43EC 168:971.291 - 0.467ms returns FALSE
T43EC 168:973.851 JLINK_IsHalted()
T43EC 168:974.374 - 0.526ms returns FALSE
T43EC 168:975.848 JLINK_IsHalted()
T43EC 168:976.386 - 0.543ms returns FALSE
T43EC 168:977.843 JLINK_IsHalted()
T43EC 168:978.382 - 0.544ms returns FALSE
T43EC 168:979.837 JLINK_IsHalted()
T43EC 168:980.385 - 0.553ms returns FALSE
T43EC 168:981.799 JLINK_IsHalted()
T43EC 168:982.273 - 0.478ms returns FALSE
T43EC 168:983.792 JLINK_IsHalted()
T43EC 168:984.251 - 0.461ms returns FALSE
T43EC 168:985.792 JLINK_IsHalted()
T43EC 168:986.288 - 0.500ms returns FALSE
T43EC 168:987.786 JLINK_IsHalted()
T43EC 168:988.294 - 0.513ms returns FALSE
T43EC 168:989.778 JLINK_IsHalted()
T43EC 168:990.316 - 0.543ms returns FALSE
T43EC 168:991.805 JLINK_IsHalted()
T43EC 168:992.404 - 0.604ms returns FALSE
T43EC 168:993.799 JLINK_IsHalted()
T43EC 168:996.610 - 2.816ms returns TRUE
T43EC 168:996.622 JLINK_ReadReg(R15 (PC))
T43EC 168:996.628 - 0.008ms returns 0x24000000
T43EC 168:996.634 JLINK_ClrBPEx(BPHandle = 0x00000007)
T43EC 168:996.638 - 0.006ms returns 0x00
T43EC 168:996.644 JLINK_ReadReg(R0)
T43EC 168:996.663 - 0.021ms returns 0x00000000
T43EC 168:996.982 JLINK_WriteReg(R0, 0x90003000)
T43EC 168:996.991 - 0.010ms returns 0x00
T43EC 168:996.996 JLINK_WriteReg(R1, 0x00001000)
T43EC 168:997.000 - 0.006ms returns 0x00
T43EC 168:997.005 JLINK_WriteReg(R2, 0x000000FF)
T43EC 168:997.009 - 0.006ms returns 0x00
T43EC 168:997.013 JLINK_WriteReg(R3, 0x00000000)
T43EC 168:997.017 - 0.006ms returns 0x00
T43EC 168:997.022 JLINK_WriteReg(R4, 0x00000000)
T43EC 168:997.026 - 0.006ms returns 0x00
T43EC 168:997.030 JLINK_WriteReg(R5, 0x00000000)
T43EC 168:997.034 - 0.006ms returns 0x00
T43EC 168:997.039 JLINK_WriteReg(R6, 0x00000000)
T43EC 168:997.043 - 0.006ms returns 0x00
T43EC 168:997.048 JLINK_WriteReg(R7, 0x00000000)
T43EC 168:997.052 - 0.006ms returns 0x00
T43EC 168:997.056 JLINK_WriteReg(R8, 0x00000000)
T43EC 168:997.060 - 0.006ms returns 0x00
T43EC 168:997.065 JLINK_WriteReg(R9, 0x24000B4C)
T43EC 168:997.069 - 0.006ms returns 0x00
T43EC 168:997.074 JLINK_WriteReg(R10, 0x00000000)
T43EC 168:997.078 - 0.006ms returns 0x00
T43EC 168:997.082 JLINK_WriteReg(R11, 0x00000000)
T43EC 168:997.086 - 0.006ms returns 0x00
T43EC 168:997.091 JLINK_WriteReg(R12, 0x00000000)
T43EC 168:997.095 - 0.006ms returns 0x00
T43EC 168:997.100 JLINK_WriteReg(R13 (SP), 0x24005000)
T43EC 168:997.104 - 0.006ms returns 0x00
T43EC 168:997.109 JLINK_WriteReg(R14, 0x24000001)
T43EC 168:997.113 - 0.006ms returns 0x00
T43EC 168:997.117 JLINK_WriteReg(R15 (PC), 0x240000AC)
T43EC 168:997.122 - 0.006ms returns 0x00
T43EC 168:997.126 JLINK_WriteReg(XPSR, 0x01000000)
T43EC 168:997.130 - 0.006ms returns 0x00
T43EC 168:997.135 JLINK_WriteReg(MSP, 0x24005000)
T43EC 168:997.139 - 0.006ms returns 0x00
T43EC 168:997.143 JLINK_WriteReg(PSP, 0x24005000)
T43EC 168:997.147 - 0.006ms returns 0x00
T43EC 168:997.152 JLINK_WriteReg(CFBP, 0x00000000)
T43EC 168:997.156 - 0.006ms returns 0x00
T43EC 168:997.161   JLINK_SetBPEx(Addr = 0x24000000, Type = 0xFFFFFFF2)
T43EC 168:997.168 - 0.009ms returns 0x00000008
T43EC 168:997.173 JLINK_Go()
T43EC 168:997.181    -- CPU_WriteMem(4 bytes @ 0xE0002000)
T43EC 168:997.776    -- CPU_ReadMem(4 bytes @ 0xE0001000)
T43EC 169:001.669 - 4.501ms
T43EC 169:001.679 JLINK_IsHalted()
T43EC 169:004.374 - 2.701ms returns TRUE
T43EC 169:004.385 JLINK_ReadReg(R15 (PC))
T43EC 169:004.392 - 0.008ms returns 0x24000000
T43EC 169:004.397 JLINK_ClrBPEx(BPHandle = 0x00000008)
T43EC 169:004.401 - 0.006ms returns 0x00
T43EC 169:004.406 JLINK_ReadReg(R0)
T43EC 169:004.410 - 0.006ms returns 0x00000001
T43EC 169:004.416 JLINK_WriteReg(R0, 0x90003000)
T43EC 169:004.421 - 0.006ms returns 0x00
T43EC 169:004.425 JLINK_WriteReg(R1, 0x00001000)
T43EC 169:004.429 - 0.005ms returns 0x00
T43EC 169:004.434 JLINK_WriteReg(R2, 0x000000FF)
T43EC 169:004.437 - 0.005ms returns 0x00
T43EC 169:004.442 JLINK_WriteReg(R3, 0x00000000)
T43EC 169:004.446 - 0.005ms returns 0x00
T43EC 169:004.450 JLINK_WriteReg(R4, 0x00000000)
T43EC 169:004.454 - 0.005ms returns 0x00
T43EC 169:004.459 JLINK_WriteReg(R5, 0x00000000)
T43EC 169:004.462 - 0.005ms returns 0x00
T43EC 169:004.467 JLINK_WriteReg(R6, 0x00000000)
T43EC 169:004.471 - 0.005ms returns 0x00
T43EC 169:004.475 JLINK_WriteReg(R7, 0x00000000)
T43EC 169:004.479 - 0.005ms returns 0x00
T43EC 169:004.484 JLINK_WriteReg(R8, 0x00000000)
T43EC 169:004.487 - 0.005ms returns 0x00
T43EC 169:004.492 JLINK_WriteReg(R9, 0x24000B4C)
T43EC 169:004.496 - 0.005ms returns 0x00
T43EC 169:004.500 JLINK_WriteReg(R10, 0x00000000)
T43EC 169:004.504 - 0.005ms returns 0x00
T43EC 169:004.509 JLINK_WriteReg(R11, 0x00000000)
T43EC 169:004.513 - 0.006ms returns 0x00
T43EC 169:004.517 JLINK_WriteReg(R12, 0x00000000)
T43EC 169:004.521 - 0.006ms returns 0x00
T43EC 169:004.526 JLINK_WriteReg(R13 (SP), 0x24005000)
T43EC 169:004.530 - 0.006ms returns 0x00
T43EC 169:004.534 JLINK_WriteReg(R14, 0x24000001)
T43EC 169:004.538 - 0.005ms returns 0x00
T43EC 169:004.543 JLINK_WriteReg(R15 (PC), 0x2400009A)
T43EC 169:004.547 - 0.006ms returns 0x00
T43EC 169:004.551 JLINK_WriteReg(XPSR, 0x01000000)
T43EC 169:004.555 - 0.006ms returns 0x00
T43EC 169:004.559 JLINK_WriteReg(MSP, 0x24005000)
T43EC 169:004.563 - 0.005ms returns 0x00
T43EC 169:004.568 JLINK_WriteReg(PSP, 0x24005000)
T43EC 169:004.572 - 0.005ms returns 0x00
T43EC 169:004.576 JLINK_WriteReg(CFBP, 0x00000000)
T43EC 169:004.580 - 0.005ms returns 0x00
T43EC 169:004.585   JLINK_SetBPEx(Addr = 0x24000000, Type = 0xFFFFFFF2)
T43EC 169:004.591 - 0.008ms returns 0x00000009
T43EC 169:004.596 JLINK_Go()
T43EC 169:004.603    -- CPU_WriteMem(4 bytes @ 0xE0002000)
T43EC 169:005.133    -- CPU_ReadMem(4 bytes @ 0xE0001000)
T43EC 169:009.030 - 4.439ms
T43EC 169:009.040 JLINK_IsHalted()
T43EC 169:009.569 - 0.532ms returns FALSE
T43EC 169:010.743 JLINK_IsHalted()
T43EC 169:011.271 - 0.531ms returns FALSE
T43EC 169:012.742 JLINK_IsHalted()
T43EC 169:013.206 - 0.468ms returns FALSE
T43EC 169:014.736 JLINK_IsHalted()
T43EC 169:015.312 - 0.579ms returns FALSE
T43EC 169:016.731 JLINK_IsHalted()
T43EC 169:017.208 - 0.480ms returns FALSE
T43EC 169:018.721 JLINK_IsHalted()
T43EC 169:019.291 - 0.573ms returns FALSE
T43EC 169:020.716 JLINK_IsHalted()
T43EC 169:021.189 - 0.479ms returns FALSE
T43EC 169:023.709 JLINK_IsHalted()
T43EC 169:024.204 - 0.498ms returns FALSE
T43EC 169:025.707 JLINK_IsHalted()
T43EC 169:026.209 - 0.505ms returns FALSE
T43EC 169:027.699 JLINK_IsHalted()
T43EC 169:028.182 - 0.486ms returns FALSE
T43EC 169:029.693 JLINK_IsHalted()
T43EC 169:030.171 - 0.482ms returns FALSE
T43EC 169:031.680 JLINK_IsHalted()
T43EC 169:032.201 - 0.524ms returns FALSE
T43EC 169:033.657 JLINK_IsHalted()
T43EC 169:034.114 - 0.460ms returns FALSE
T43EC 169:036.650 JLINK_IsHalted()
T43EC 169:037.189 - 0.545ms returns FALSE
T43EC 169:038.714 JLINK_IsHalted()
T43EC 169:039.255 - 0.546ms returns FALSE
T43EC 169:040.708 JLINK_IsHalted()
T43EC 169:041.238 - 0.535ms returns FALSE
T43EC 169:042.680 JLINK_IsHalted()
T43EC 169:043.224 - 0.550ms returns FALSE
T43EC 169:044.667 JLINK_IsHalted()
T43EC 169:045.207 - 0.545ms returns FALSE
T43EC 169:046.626 JLINK_IsHalted()
T43EC 169:047.110 - 0.488ms returns FALSE
T43EC 169:048.620 JLINK_IsHalted()
T43EC 169:049.105 - 0.489ms returns FALSE
T43EC 169:052.644 JLINK_IsHalted()
T43EC 169:053.287 - 0.648ms returns FALSE
T43EC 169:054.604 JLINK_IsHalted()
T43EC 169:055.151 - 0.552ms returns FALSE
T43EC 169:056.597 JLINK_IsHalted()
T43EC 169:057.061 - 0.469ms returns FALSE
T43EC 169:058.595 JLINK_IsHalted()
T43EC 169:059.037 - 0.446ms returns FALSE
T43EC 169:060.588 JLINK_IsHalted()
T43EC 169:061.081 - 0.498ms returns FALSE
T43EC 169:062.585 JLINK_IsHalted()
T43EC 169:065.167 - 2.587ms returns TRUE
T43EC 169:065.177 JLINK_ReadReg(R15 (PC))
T43EC 169:065.185 - 0.010ms returns 0x24000000
T43EC 169:065.191 JLINK_ClrBPEx(BPHandle = 0x00000009)
T43EC 169:065.197 - 0.007ms returns 0x00
T43EC 169:065.202 JLINK_ReadReg(R0)
T43EC 169:065.208 - 0.007ms returns 0x00000000
T43EC 169:065.634 JLINK_WriteReg(R0, 0x90004000)
T43EC 169:065.645 - 0.013ms returns 0x00
T43EC 169:065.651 JLINK_WriteReg(R1, 0x00001000)
T43EC 169:065.656 - 0.007ms returns 0x00
T43EC 169:065.662 JLINK_WriteReg(R2, 0x000000FF)
T43EC 169:065.667 - 0.007ms returns 0x00
T43EC 169:065.673 JLINK_WriteReg(R3, 0x00000000)
T43EC 169:065.678 - 0.007ms returns 0x00
T43EC 169:065.683 JLINK_WriteReg(R4, 0x00000000)
T43EC 169:065.688 - 0.007ms returns 0x00
T43EC 169:065.694 JLINK_WriteReg(R5, 0x00000000)
T43EC 169:065.699 - 0.007ms returns 0x00
T43EC 169:065.704 JLINK_WriteReg(R6, 0x00000000)
T43EC 169:065.709 - 0.007ms returns 0x00
T43EC 169:065.715 JLINK_WriteReg(R7, 0x00000000)
T43EC 169:065.720 - 0.007ms returns 0x00
T43EC 169:065.726 JLINK_WriteReg(R8, 0x00000000)
T43EC 169:065.731 - 0.007ms returns 0x00
T43EC 169:065.736 JLINK_WriteReg(R9, 0x24000B4C)
T43EC 169:065.741 - 0.007ms returns 0x00
T43EC 169:065.747 JLINK_WriteReg(R10, 0x00000000)
T43EC 169:065.752 - 0.007ms returns 0x00
T43EC 169:065.757 JLINK_WriteReg(R11, 0x00000000)
T43EC 169:065.763 - 0.007ms returns 0x00
T43EC 169:065.768 JLINK_WriteReg(R12, 0x00000000)
T43EC 169:065.773 - 0.007ms returns 0x00
T43EC 169:065.779 JLINK_WriteReg(R13 (SP), 0x24005000)
T43EC 169:065.784 - 0.007ms returns 0x00
T43EC 169:065.789 JLINK_WriteReg(R14, 0x24000001)
T43EC 169:065.794 - 0.007ms returns 0x00
T43EC 169:065.800 JLINK_WriteReg(R15 (PC), 0x240000AC)
T43EC 169:065.805 - 0.007ms returns 0x00
T43EC 169:065.810 JLINK_WriteReg(XPSR, 0x01000000)
T43EC 169:065.815 - 0.007ms returns 0x00
T43EC 169:065.821 JLINK_WriteReg(MSP, 0x24005000)
T43EC 169:065.826 - 0.007ms returns 0x00
T43EC 169:065.831 JLINK_WriteReg(PSP, 0x24005000)
T43EC 169:065.836 - 0.007ms returns 0x00
T43EC 169:065.842 JLINK_WriteReg(CFBP, 0x00000000)
T43EC 169:065.847 - 0.007ms returns 0x00
T43EC 169:065.854   JLINK_SetBPEx(Addr = 0x24000000, Type = 0xFFFFFFF2)
T43EC 169:065.862 - 0.011ms returns 0x0000000A
T43EC 169:065.868 JLINK_Go()
T43EC 169:065.878    -- CPU_WriteMem(4 bytes @ 0xE0002000)
T43EC 169:066.432    -- CPU_ReadMem(4 bytes @ 0xE0001000)
T43EC 169:070.343 - 4.482ms
T43EC 169:070.355 JLINK_IsHalted()
T43EC 169:073.176 - 2.826ms returns TRUE
T43EC 169:073.186 JLINK_ReadReg(R15 (PC))
T43EC 169:073.192 - 0.008ms returns 0x24000000
T43EC 169:073.197 JLINK_ClrBPEx(BPHandle = 0x0000000A)
T43EC 169:073.202 - 0.006ms returns 0x00
T43EC 169:073.207 JLINK_ReadReg(R0)
T43EC 169:073.211 - 0.006ms returns 0x00000001
T43EC 169:073.217 JLINK_WriteReg(R0, 0x90004000)
T43EC 169:073.222 - 0.006ms returns 0x00
T43EC 169:073.226 JLINK_WriteReg(R1, 0x00001000)
T43EC 169:073.230 - 0.005ms returns 0x00
T43EC 169:073.234 JLINK_WriteReg(R2, 0x000000FF)
T43EC 169:073.238 - 0.005ms returns 0x00
T43EC 169:073.243 JLINK_WriteReg(R3, 0x00000000)
T43EC 169:073.246 - 0.005ms returns 0x00
T43EC 169:073.251 JLINK_WriteReg(R4, 0x00000000)
T43EC 169:073.255 - 0.005ms returns 0x00
T43EC 169:073.259 JLINK_WriteReg(R5, 0x00000000)
T43EC 169:073.263 - 0.005ms returns 0x00
T43EC 169:073.267 JLINK_WriteReg(R6, 0x00000000)
T43EC 169:073.271 - 0.005ms returns 0x00
T43EC 169:073.275 JLINK_WriteReg(R7, 0x00000000)
T43EC 169:073.279 - 0.005ms returns 0x00
T43EC 169:073.283 JLINK_WriteReg(R8, 0x00000000)
T43EC 169:073.287 - 0.005ms returns 0x00
T43EC 169:073.292 JLINK_WriteReg(R9, 0x24000B4C)
T43EC 169:073.297 - 0.008ms returns 0x00
T43EC 169:073.303 JLINK_WriteReg(R10, 0x00000000)
T43EC 169:073.307 - 0.005ms returns 0x00
T43EC 169:073.311 JLINK_WriteReg(R11, 0x00000000)
T43EC 169:073.315 - 0.005ms returns 0x00
T43EC 169:073.319 JLINK_WriteReg(R12, 0x00000000)
T43EC 169:073.323 - 0.005ms returns 0x00
T43EC 169:073.328 JLINK_WriteReg(R13 (SP), 0x24005000)
T43EC 169:073.332 - 0.006ms returns 0x00
T43EC 169:073.336 JLINK_WriteReg(R14, 0x24000001)
T43EC 169:073.340 - 0.005ms returns 0x00
T43EC 169:073.344 JLINK_WriteReg(R15 (PC), 0x2400009A)
T43EC 169:073.348 - 0.005ms returns 0x00
T43EC 169:073.353 JLINK_WriteReg(XPSR, 0x01000000)
T43EC 169:073.357 - 0.005ms returns 0x00
T43EC 169:073.361 JLINK_WriteReg(MSP, 0x24005000)
T43EC 169:073.365 - 0.005ms returns 0x00
T43EC 169:073.369 JLINK_WriteReg(PSP, 0x24005000)
T43EC 169:073.373 - 0.005ms returns 0x00
T43EC 169:073.377 JLINK_WriteReg(CFBP, 0x00000000)
T43EC 169:073.381 - 0.005ms returns 0x00
T43EC 169:073.386   JLINK_SetBPEx(Addr = 0x24000000, Type = 0xFFFFFFF2)
T43EC 169:073.392 - 0.008ms returns 0x0000000B
T43EC 169:073.397 JLINK_Go()
T43EC 169:073.404    -- CPU_WriteMem(4 bytes @ 0xE0002000)
T43EC 169:074.035    -- CPU_ReadMem(4 bytes @ 0xE0001000)
T43EC 169:077.984 - 4.592ms
T43EC 169:077.994 JLINK_IsHalted()
T43EC 169:078.549 - 0.557ms returns FALSE
T43EC 169:080.575 JLINK_IsHalted()
T43EC 169:081.126 - 0.555ms returns FALSE
T43EC 169:082.550 JLINK_IsHalted()
T43EC 169:083.091 - 0.544ms returns FALSE
T43EC 169:084.524 JLINK_IsHalted()
T43EC 169:085.042 - 0.521ms returns FALSE
T43EC 169:086.596 JLINK_IsHalted()
T43EC 169:087.152 - 0.559ms returns FALSE
T43EC 169:088.539 JLINK_IsHalted()
T43EC 169:089.090 - 0.554ms returns FALSE
T43EC 169:090.529 JLINK_IsHalted()
T43EC 169:091.113 - 0.586ms returns FALSE
T43EC 169:092.526 JLINK_IsHalted()
T43EC 169:093.046 - 0.523ms returns FALSE
T43EC 169:094.519 JLINK_IsHalted()
T43EC 169:095.026 - 0.512ms returns FALSE
T43EC 169:096.515 JLINK_IsHalted()
T43EC 169:097.071 - 0.559ms returns FALSE
T43EC 169:098.485 JLINK_IsHalted()
T43EC 169:098.953 - 0.471ms returns FALSE
T43EC 169:100.477 JLINK_IsHalted()
T43EC 169:100.934 - 0.460ms returns FALSE
T43EC 169:102.473 JLINK_IsHalted()
T43EC 169:102.934 - 0.464ms returns FALSE
T43EC 169:104.502 JLINK_IsHalted()
T43EC 169:104.994 - 0.497ms returns FALSE
T43EC 169:106.466 JLINK_IsHalted()
T43EC 169:106.933 - 0.470ms returns FALSE
T43EC 169:108.456 JLINK_IsHalted()
T43EC 169:108.914 - 0.461ms returns FALSE
T43EC 169:110.454 JLINK_IsHalted()
T43EC 169:110.990 - 0.542ms returns FALSE
T43EC 169:112.481 JLINK_IsHalted()
T43EC 169:113.026 - 0.550ms returns FALSE
T43EC 169:114.474 JLINK_IsHalted()
T43EC 169:115.012 - 0.544ms returns FALSE
T43EC 169:116.470 JLINK_IsHalted()
T43EC 169:117.013 - 0.548ms returns FALSE
T43EC 169:118.455 JLINK_IsHalted()
T43EC 169:118.987 - 0.537ms returns FALSE
T43EC 169:120.459 JLINK_IsHalted()
T43EC 169:120.992 - 0.537ms returns FALSE
T43EC 169:122.445 JLINK_IsHalted()
T43EC 169:122.915 - 0.473ms returns FALSE
T43EC 169:124.418 JLINK_IsHalted()
T43EC 169:124.917 - 0.502ms returns FALSE
T43EC 169:126.433 JLINK_IsHalted()
T43EC 169:129.095 - 2.668ms returns TRUE
T43EC 169:129.106 JLINK_ReadReg(R15 (PC))
T43EC 169:129.112 - 0.008ms returns 0x24000000
T43EC 169:129.118 JLINK_ClrBPEx(BPHandle = 0x0000000B)
T43EC 169:129.123 - 0.006ms returns 0x00
T43EC 169:129.127 JLINK_ReadReg(R0)
T43EC 169:129.132 - 0.006ms returns 0x00000000
T43EC 169:129.512 JLINK_WriteReg(R0, 0x90005000)
T43EC 169:129.521 - 0.011ms returns 0x00
T43EC 169:129.526 JLINK_WriteReg(R1, 0x00001000)
T43EC 169:129.531 - 0.006ms returns 0x00
T43EC 169:129.535 JLINK_WriteReg(R2, 0x000000FF)
T43EC 169:129.540 - 0.007ms returns 0x00
T43EC 169:129.545 JLINK_WriteReg(R3, 0x00000000)
T43EC 169:129.549 - 0.006ms returns 0x00
T43EC 169:129.554 JLINK_WriteReg(R4, 0x00000000)
T43EC 169:129.558 - 0.006ms returns 0x00
T43EC 169:129.562 JLINK_WriteReg(R5, 0x00000000)
T43EC 169:129.566 - 0.006ms returns 0x00
T43EC 169:129.573 JLINK_WriteReg(R6, 0x00000000)
T43EC 169:129.579 - 0.007ms returns 0x00
T43EC 169:129.583 JLINK_WriteReg(R7, 0x00000000)
T43EC 169:129.587 - 0.006ms returns 0x00
T43EC 169:129.592 JLINK_WriteReg(R8, 0x00000000)
T43EC 169:129.596 - 0.006ms returns 0x00
T43EC 169:129.600 JLINK_WriteReg(R9, 0x24000B4C)
T43EC 169:129.604 - 0.006ms returns 0x00
T43EC 169:129.609 JLINK_WriteReg(R10, 0x00000000)
T43EC 169:129.613 - 0.006ms returns 0x00
T43EC 169:129.617 JLINK_WriteReg(R11, 0x00000000)
T43EC 169:129.622 - 0.006ms returns 0x00
T43EC 169:129.626 JLINK_WriteReg(R12, 0x00000000)
T43EC 169:129.630 - 0.006ms returns 0x00
T43EC 169:129.635 JLINK_WriteReg(R13 (SP), 0x24005000)
T43EC 169:129.639 - 0.006ms returns 0x00
T43EC 169:129.644 JLINK_WriteReg(R14, 0x24000001)
T43EC 169:129.648 - 0.006ms returns 0x00
T43EC 169:129.653 JLINK_WriteReg(R15 (PC), 0x240000AC)
T43EC 169:129.657 - 0.006ms returns 0x00
T43EC 169:129.661 JLINK_WriteReg(XPSR, 0x01000000)
T43EC 169:129.665 - 0.006ms returns 0x00
T43EC 169:129.670 JLINK_WriteReg(MSP, 0x24005000)
T43EC 169:129.674 - 0.006ms returns 0x00
T43EC 169:129.679 JLINK_WriteReg(PSP, 0x24005000)
T43EC 169:129.683 - 0.006ms returns 0x00
T43EC 169:129.687 JLINK_WriteReg(CFBP, 0x00000000)
T43EC 169:129.691 - 0.006ms returns 0x00
T43EC 169:129.697   JLINK_SetBPEx(Addr = 0x24000000, Type = 0xFFFFFFF2)
T43EC 169:129.703 - 0.009ms returns 0x0000000C
T43EC 169:129.708 JLINK_Go()
T43EC 169:129.716    -- CPU_WriteMem(4 bytes @ 0xE0002000)
T43EC 169:130.288    -- CPU_ReadMem(4 bytes @ 0xE0001000)
T43EC 169:133.969 - 4.266ms
T43EC 169:133.981 JLINK_IsHalted()
T43EC 169:136.719 - 2.743ms returns TRUE
T43EC 169:136.729 JLINK_ReadReg(R15 (PC))
T43EC 169:136.734 - 0.007ms returns 0x24000000
T43EC 169:136.739 JLINK_ClrBPEx(BPHandle = 0x0000000C)
T43EC 169:136.744 - 0.006ms returns 0x00
T43EC 169:136.809 JLINK_ReadReg(R0)
